
09:43:28.189 设备发送:02 03 03 84 00 06 85 96

09:43:30.192 设备发送:02 03 03 52 00 0C E4 69

09:43:32.204 设备发送:02 03 03 52 00 0C E4 69

09:43:34.226 设备发送:02 03 03 52 00 0C E4 69

09:43:36.220 设备发送:02 03 03 5E 00 04 25 AC

09:43:38.232 设备发送:02 03 03 5E 00 04 25 AC

09:43:40.254 设备发送:02 03 03 5E 00 04 25 AC

09:43:42.284 设备发送:02 03 03 62 00 10 E5 AF

09:43:44.290 设备发送:02 03 03 62 00 10 E5 AF

09:43:46.291 设备发送:02 03 03 62 00 10 E5 AF

09:43:48.292 设备发送:02 03 03 84 00 06 85 96

09:43:50.320 设备发送:02 03 03 84 00 06 85 96

09:43:52.347 设备发送:02 03 03 84 00 06 85 96

09:43:54.359 设备发送:02 03 03 52 00 0C E4 69

09:43:56.389 设备发送:02 03 03 52 00 0C E4 69

09:43:56.77700

