

13:47:52.538 设备发送:03 03 03 62 00 10 E4 7E

13:47:55.540 设备发送:03 03 03 84 00 06 84 47

13:47:58.550 设备发送:03 03 03 84 00 06 84 47

13:48:01.572 设备发送:03 03 03 84 00 06 84 47

13:48:04.576 设备发送:04 03 03 52 00 0C E4 0F

13:48:07.573 设备接收:04 03 18 99 9A 3F D9 99 9A 40 19 CC CD 40 0C 00 00 3F 80 00 00 3F 80 00 00 3F 80 05 89

13:48:07.620 设备发送:04 03 03 5E 00 04 25 CA

13:48:10.582 设备接收:04 03 08 00 27 00 28 00 27 00 29 C2 CA

13:48:10.633 设备发送:04 03 03 62 00 10 E5 C9

13:48:13.617 设备接收:04 03 20 00 00 40 00 00 00 00 00 00 00 00 00 00 00 3F 80 12 6F BC 03 CC CD BD CC CC CD BD CC 00 00 00 00 61 56

13:48:13.673 设备发送:04 03 03 84 00 06 85 F0

13:48:16.624 设备接收:04 03 0C 00 00 00 01 00 00 00 00 00 00 00 00 5B E3

13:48:16.672 设备发送:05 03 03 52 00 0C E5 DE

13:48:19.658 设备发送:05 03 03 52 00 0C E5 DE

13:48:22.667 设备发送:05 03 03 52 00 0C E5 DE

13:48:25.684 设备发送:05 03 03 5E 00 04 24 1B

13:48:28.717 设备发送:05 03 03 5E 00 04 24 1B

13:48:31.724 设备发送:05 03 03 5E 00 04 24 1B

13:48:34.746 设备发送:05 03 03 62 00 10 E4 18

13:48:37.744 设备发送:05 03 03 62 00 10 E4 18

13:48:40.749 设备发送:05 03 03 62 00 10 E4 18

13:48:43.778 设备发送:05 03 03 84 00 06 84 21

13:48:46.774 设备发送:05 03 03 84 00 06 84 21

13:48:49.823 设备发送:05 03 03 84 00 06 84 21

13:48:52.836 设备发送:02 03 03 52 00 0C E4 69

13:48:55.819 设备接收:02 03 18 CC CD 3F 8C 99 9A 3F 99 CC CD 3F 8C 00 00 40 40 00 00 40 00 00 00 40 40 C3 59

13:48:55.872 设备发送:02 03 03 5E 00 04 25 AC

13:48:58.841 设备接收:02 03 08 00 25 00 26 00 27 00 2A D6 42

13:48:58.894 设备发送:02 03 03 62 00 10 E5 AF

13:49:01.856 设备接收:02 03 20 00 00 3F 80 00 00 3F 80 00 00 41 00 00 00 40 00 12 6F 3C 03 CC CD BE 4C CC CD BD CC 00 00 00 00 29 B9

13:49:01.903 设备发送:02 03 03 84 00 06 85 96

13:49:04.898 设备接收:02 03 0C 00 00 00 01 00 00 00 00 00 00 00 00 DD E1

13:49:04.948 设备发送:03 03 03 52 00 0C E5 B8

13:49:07.926 设备发送:03 03 03 52 00 0C E5 B8

13:49:10.958 设备发送:03 03 03 52 00 0C E5 B8

13:49:13.977 设备发送:03 03 03 5E 00 04 24 7D

13:49:16.978 设备发送:03 03 03 5E 00 04 24 7D

13:49:20.006 设备发送:03 03 03 5E 00 04 24 7D

13:49:23.016 设备发送:03 03 03 62 00 10 E4 7E

13:49:26.044 设备发送:03 03 03 62 00 10 E4 7E

13:49:29.057 设备发送:03 03 03 62 00 10 E4 7E

13:49:32.070 设备发送:03 03 03 84 00 06 84 47

13:49:35.096 设备发送:03 03 03 84 00 06 84 47

13:49:38.113 设备发送:03 03 03 84 00 06 84 47

13:49:41.124 设备发送:04 03 03 52 00 0C E4 0F

13:49:44.124 设备接收:04 03 18 99 9A 3F D9 99 9A 40 19 CC CD 40 0C 00 00 3F 80 00 00 3F 80 00 00 3F 80 05 89

13:49:44.169 设备发送:04 03 03 5E 00 04 25 CA

13:49:47.114 设备接收:04 03 08 00 27 00 28 00 27 00 29 C2 CA

13:49:47.168 设备发送:04 03 03 62 00 10 E5 C9

13:49:50.143 设备接收:04 03 20 00 00 40 00 00 00 00 00 00 00 00 00 00 00 3F 80 74 BC BC 13 CC CD BD CC CC CD BD CC 00 00 00 00 67 11

13:49:53.168 设备接收:04 03 0C 00 00 00 01 00 00 00 00 00 00 00 00 5B E3

13:49:53.224 设备发送:05 03 03 52 00 0C E5 DE

13:49:56.190 设备发送:05 03 03 52 00 0C E5 DE

13:49:59.196 设备发送:05 03 03 52 00 0C E5 DE

13:50:02.211 设备发送:05 03 03 5E 00 04 24 1B

13:50:05.224 设备发送:05 03 03 5E 00 04 24 1B

13:50:08.228 设备发送:05 03 03 5E 00 04 24 1B

13:50:11.240 设备发送:05 03 03 62 00 10 E4 18

13:50:14.243 设备发送:05 03 03 62 00 10 E4 18

13:50:17.252 设备发送:05 03 03 62 00 10 E4 18

13:50:20.263 设备发送:05 03 03 84 00 06 84 21

13:50:23.279 设备发送:05 03 03 84 00 06 84 21

13:50:26.309 设备发送:05 03 03 84 00 06 84 21

13:50:29.319 设备发送:02 03 03 52 00 0C E4 69

13:50:32.315 设备接收:02 03 18 CC CD 3F 8C 99 9A 3F 99 CC CD 3F 8C 00 00 40 40 00 00 40 00 00 00 40 40 C3 59

13:50:35.324 设备接收:02 03 08 00 25 00 26 00 27 00 2A D6 42

13:50:37.22900

