
11:42:52.079 设备发送:02 03 03 52 00 0C E4 69

11:42:54.064 设备接收:02 03 18 99 9A 3E 99 99 9A 3E 99 CC CD 3E CC 00 00 00 00 00 00 00 00 00 00 00 00 B9 60

11:42:54.109 设备发送:02 03 03 5E 00 04 25 AC

11:42:56.086 设备接收:02 03 08 00 1D 00 1D 00 1E 00 20 DA 4E

11:42:56.135 设备发送:02 03 03 62 00 10 E5 AF

11:42:58.091 设备接收:02 03 20 00 00 00 00 00 00 00 00 00 00 40 E0 00 00 00 00 00 00 00 00 CC CD BE 4C CC CD BE 4C 00 00 00 00 9B E6

11:42:58.144 设备发送:02 03 03 84 00 06 85 96

11:43:00.097 设备接收:02 03 0C 00 00 00 01 00 00 00 00 00 00 00 00 DD E1

11:43:00.145 设备发送:02 03 03 52 00 0C E4 69

11:43:02.111 设备接收:02 03 18 CC CD 3E 4C 99 9A 3E 99 99 9A 3E 99 00 00 00 00 00 00 00 00 00 00 00 00 44 87

11:43:02.164 设备发送:02 03 03 5E 00 04 25 AC

11:43:04.135 设备接收:02 03 08 00 1D 00 1D 00 1E 00 20 DA 4E

11:43:04.188 设备发送:02 03 03 62 00 10 E5 AF

11:43:06.146 设备接收:02 03 20 00 00 00 00 00 00 00 00 00 00 40 E0 00 00 00 00 00 00 00 00 CC CD BE 4C CC CD BD CC 00 00 00 00 9A 0B

11:43:06.197 设备发送:02 03 03 84 00 06 85 96

11:43:08.157 设备接收:02 03 0C 00 00 00 01 00 00 00 00 00 00 00 00 DD E1

11:43:08.209 设备发送:02 03 03 52 00 0C E4 69

11:43:10.183 设备接收:02 03 18 99 9A 3E 99 CC CD 3D CC CC CD 3E CC 00 00 00 00 00 00 00 00 00 00 00 00 02 15

11:43:10.232 设备发送:02 03 03 5E 00 04 25 AC

11:43:12.188 设备接收:02 03 08 00 1D 00 1D 00 1E 00 20 DA 4E

11:43:12.240 设备发送:02 03 03 62 00 10 E5 AF

11:43:14.209 设备接收:02 03 20 00 00 00 00 00 00 00 00 00 00 41 00 00 00 00 00 00 00 00 00 CC CD BE 4C 00 00 00 00 00 00 00 00 A7 5D

11:43:14.259 设备发送:02 03 03 84 00 06 85 96

11:43:16.231 设备接收:02 03 0C 00 00 00 01 00 00 00 00 00 00 00 00 DD E1

11:43:16.272 设备发送:02 03 03 52 00 0C E4 69

11:43:20.263 设备接收:02 03 08 00 1D 00 1D 00 1E 00 20 DA 4E

11:43:20.322 设备发送:02 03 03 62 00 10 E5 AF

11:43:22.283 设备接收:02 03 20 00 00 00 00 00 00 00 00 00 00 40 E0 00 00 00 00 00 00 00 00 CC CD BE 4C CC CD BD CC 00 00 00 00 9A 0B

11:43:22.331 设备发送:02 03 03 84 00 06 85 96

11:43:24.290 设备接收:02 03 0C 00 00 00 01 00 00 00 00 00 00 00 00 DD E1

11:43:24.342 设备发送:02 03 03 52 00 0C E4 69

11:43:26.315 设备接收:02 03 18 99 9A 3E 99 99 9A 3E 99 99 9A 3E 99 00 00 00 00 00 00 00 00 00 00 00 00 9D 64

11:43:26.372 设备发送:02 03 03 5E 00 04 25 AC

11:43:28.310 设备接收:02 03 08 00 1D 00 1D 00 1E 00 20 DA 4E

11:43:28.357 设备发送:02 03 03 62 00 10 E5 AF

11:43:30.341 设备接收:02 03 20 00 00 00 00 00 00 00 00 00 00 41 00 00 00 00 00 00 00 00 00 99 9A BE 99 CC CD BE 4C 00 00 00 00 C8 68

11:43:30.386 设备发送:02 03 03 84 00 06 85 96

11:43:32.350 设备接收:02 03 0C 00 00 00 01 00 00 00 00 00 00 00 00 DD E1

11:43:32.406 设备发送:02 03 03 52 00 0C E4 69

11:43:34.380 设备接收:02 03 18 CC CD 3E 4C 99 9A 3E 99 99 9A 3E 99 00 00 00 00 00 00 00 00 00 00 00 00 44 87

11:43:34.436 设备发送:02 03 03 5E 00 04 25 AC

11:43:36.408 设备接收:02 03 08 00 1D 00 1D 00 1E 00 20 DA 4E

11:43:36.453 设备发送:02 03 03 62 00 10 E5 AF

11:43:38.418 设备接收:02 03 20 00 00 00 00 00 00 00 00 00 00 41 00 00 00 00 00 00 00 00 00 CC CD BE 4C CC CD BD CC 00 00 00 00 BC A9

11:43:38.465 设备发送:02 03 03 84 00 06 85 96

11:43:40.439 设备接收:02 03 0C 00 00 00 01 00 00 00 00 00 00 00 00 DD E1

11:43:40.494 设备发送:02 03 03 52 00 0C E4 69

11:43:42.445 设备接收:02 03 18 CC CD 3E 4C CC CD 3E 4C 99 9A 3E 99 00 00 00 00 00 00 00 00 00 00 00 00 6E 5E

11:43:42.501 设备发送:02 03 03 5E 00 04 25 AC

11:43:44.459 设备接收:02 03 08 00 1D 00 1D 00 1E 00 20 DA 4E

11:43:44.502 设备发送:02 03 03 62 00 10 E5 AF

11:43:46.458 设备接收:02 03 20 00 00 00 00 00 00 00 00 00 00 41 00 00 00 00 00 00 00 00 00 CC CD BD CC 00 00 00 00 00 00 00 00 36 94

11:43:46.503 设备发送:02 03 03 84 00 06 85 96

11:43:48.479 设备发送:02 03 03 52 00 0C E4 69

11:43:48.527 设备接收:02 03 0C 00 00 00 01 00 00 00 00 00 00 00 00 DD E1

11:43:50.495 设备接收:02 03 18 CC CD 3E 4C CC CD 3E 4C 99 9A 3E 99 00 00 00 00 00 00 00 00 00 00 00 00 6E 5E

11:43:50.551 设备发送:02 03 03 5E 00 04 25 AC

11:43:52.508 设备接收:02 03 08 00 1D 00 1D 00 1E 00 20 DA 4E

11:43:52.563 设备发送:02 03 03 62 00 10 E5 AF

11:43:54.510 设备接收:02 03 20 00 00 00 00 00 00 00 00 00 00 40 E0 00 00 00 00 00 00 00 00 CC CD BE 4C CC CD BE 4C 00 00 00 00 9B E6

11:43:54.566 设备发送:02 03 03 84 00 06 85 96

11:43:56.516 设备接收:02 03 0C 00 00 00 01 00 00 00 00 00 00 00 00 DD E1

11:43:56.562 设备发送:02 03 03 52 00 0C E4 69

11:43:58.544 设备接收:02 03 18 CC CD 3E 4C CC CD 3E 4C 99 9A 3E 99 00 00 00 00 00 00 00 00 00 00 00 00 6E 5E

11:43:58.594 设备发送:02 03 03 5E 00 04 25 AC

11:44:00.539 设备接收:02 03 08 00 1D 00 1D 00 1E 00 20 DA 4E

11:44:00.589 设备发送:02 03 03 62 00 10 E5 AF

11:44:02.565 设备接收:02 03 20 00 00 3F 80 00 00 00 00 00 00 40 E0 00 00 00 00 00 00 00 00 CC CD BE 4C CC CD BD CC 00 00 00 00 B4 1B

11:44:04.558 设备接收:02 03 0C 00 00 00 01 00 00 00 00 00 00 00 00 DD E1

11:44:04.605 设备发送:02 03 03 52 00 0C E4 69

11:44:06.583 设备接收:02 03 18 CC CD 3E 4C 99 9A 3E 99 99 9A 3E 99 00 00 00 00 00 00 00 00 00 00 00 00 44 87

11:44:08.585 设备接收:02 03 08 00 1D 00 1D 00 1E 00 20 DA 4E

11:44:08.642 设备发送:02 03 03 62 00 10 E5 AF

11:44:10.598 设备接收:02 03 20 00 00 00 00 00 00 00 00 00 00 40 E0 00 00 00 00 00 00 00 00 CC CD BE 4C CC CD BE 4C 00 00 00 00 9B E6

11:44:12.627 设备接收:02 03 0C 00 00 00 01 00 00 00 00 00 00 00 00 DD E1

11:44:14.653 设备接收:02 03 18 CC CD 3E 4C CC CD 3E 4C CC CD 3E 4C 00 00 00 00 00 00 00 00 00 00 00 00 B5 9B

11:44:16.658 设备接收:02 03 08 00 1D 00 1D 00 1E 00 20 DA 4E

11:44:18.691 设备接收:02 03 20 00 00 00 00 00 00 00 00 00 00 40 E0 00 00 00 00 00 00 00 00 CC CD BE 4C CC CD BE 4C 00 00 00 00 9B E6

11:44:18.733 设备发送:02 03 03 84 00 06 85 96

11:44:20.701 设备接收:02 03 0C 00 00 00 01 00 00 00 00 00 00 00 00 DD E1

11:44:22.729 设备接收:02 03 18 CC CD 3E 4C CC CD 3E 4C 99 9A 3E 99 00 00 00 00 00 00 00 00 00 00 00 00 6E 5E

11:44:24.740 设备接收:02 03 08 00 1D 00 1D 00 1E 00 20 DA 4E

11:44:26.749 设备接收:02 03 20 00 00 00 00 00 00 00 00 00 00 40 C0 00 00 00 00 00 00 00 00 CC CD BE 4C CC CD BD CC 00 00 00 00 BD 69

11:44:28.756 设备接收:02 03 0C 00 00 00 01 00 00 00 00 00 00 00 00 DD E1

11:44:30.774 设备接收:02 03 18 99 9A 3E 99 CC CD 3D CC CC CD 3E CC 00 00 00 00 00 00 00 00 00 00 00 00 02 15

11:44:32.787 设备接收:02 03 08 00 1D 00 1D 00 1E 00 20 DA 4E

11:44:32.838 设备发送:02 03 03 62 00 10 E5 AF

11:44:34.806 设备接收:02 03 20 00 00 00 00 00 00 00 00 00 00 40 E0 00 00 00 00 00 00 00 00 CC CD BE 4C CC CD BD CC 00 00 00 00 9A 0B

11:44:36.809 设备接收:02 03 0C 00 00 00 01 00 00 00 00 00 00 00 00 DD E1

11:44:38.846 设备接收:02 03 18 99 9A 3E 99 CC CD 3D CC CC CD 3E CC 00 00 00 00 00 00 00 00 00 00 00 00 02 15

11:44:40.850 设备接收:02 03 08 00 1D 00 1D 00 1E 00 20 DA 4E

11:44:42.863 设备接收:02 03 20 00 00 00 00 00 00 00 00 00 00 40 E0 00 00 00 00 00 00 00 00 CC CD BE 4C 00 00 00 00 00 00 00 00 81 FF

11:44:44.892 设备接收:02 03 0C 00 00 00 01 00 00 00 00 00 00 00 00 DD E1

11:44:46.921 设备接收:02 03 18 CC CD 3E 4C CC CD 3D CC CC CD 3E CC 00 00 00 00 00 00 00 00 00 00 00 00 DB F6

11:44:48.928 设备接收:02 03 08 00 1D 00 1D 00 1E 00 20 DA 4E

11:44:50.969 设备接收:02 03 20 00 00 00 00 00 00 00 00 00 00 40 E0 00 00 00 00 00 00 00 00 CC CD BE 4C CC CD BE 4C 00 00 00 00 9B E6

11:44:52.970 设备接收:02 03 0C 00 00 00 01 00 00 00 00 00 00 00 00 DD E1

11:44:54.986 设备接收:02 03 18 CC CD 3E 4C 99 9A 3E 99 CC CD 3E CC 00 00 00 00 00 00 00 00 00 00 00 00 60 83

11:44:57.000 设备接收:02 03 08 00 1D 00 1D 00 1E 00 20 DA 4E

11:44:59.025 设备接收:02 03 20 00 00 00 00 00 00 00 00 00 00 40 E0 00 00 00 00 00 00 00 00 99 9A BE 99 CC CD BE 4C 00 00 00 00 EE CA

11:45:01.040 设备接收:02 03 0C 00 00 00 01 00 00 00 00 00 00 00 00 DD E1

11:45:03.065 设备接收:02 03 18 99 9A 3E 99 CC CD 3E 4C CC CD 3E CC 00 00 00 00 00 00 00 00 00 00 00 00 93 B9

11:45:05.071 设备接收:02 03 08 00 1D 00 1D 00 1E 00 20 DA 4E

11:45:07.101 设备发送:02 03 03 84 00 06 85 96

11:45:09.109 设备接收:02 03 0C 00 00 00 01 00 00 00 00 00 00 00 00 DD E1

11:45:11.118 设备发送:02 03 03 5E 00 04 25 AC

11:45:13.143 设备接收:02 03 08 00 1D 00 1D 00 1E 00 20 DA 4E

11:45:15.165 设备接收:02 03 20 00 00 00 00 00 00 00 00 00 00 40 E0 00 00 00 00 00 00 00 00 CC CD BE 4C 00 00 00 00 00 00 00 00 81 FF

11:45:17.160 设备接收:02 03 0C 00 00 00 01 00 00 00 00 00 00 00 00 DD E1

11:45:19.197 设备接收:02 03 18 99 9A 3E 99 CC CD 3E 4C CC CD 3E CC 00 00 00 00 00 00 00 00 00 00 00 00 93 B9

11:45:21.212 设备接收:02 03 08 00 1D 00 1D 00 1E 00 20 DA 4E

11:45:23.212 设备接收:02 03 20 00 00 00 00 00 00 00 00 00 00 41 00 00 00 00 00 00 00 00 00 CC CD BE 4C 00 00 00 00 00 00 00 00 A7 5D

11:45:25.225 设备接收:02 03 0C 00 00 00 01 00 00 00 00 00 00 00 00 DD E1

11:45:27.261 设备接收:02 03 18 CC CD 3E 4C CC CD 3E 4C 99 9A 3E 99 00 00 00 00 00 00 00 00 00 00 00 00 6E 5E

11:45:29.273 设备接收:02 03 08 00 1D 00 1D 00 1E 00 20 DA 4E

11:45:31.298 设备接收:02 03 20 00 00 3F 80 00 00 00 00 00 00 40 E0 00 00 00 00 00 00 00 00 CC CD BE 4C CC CD BD CC 00 00 00 00 B4 1B

11:45:33.309 设备接收:02 03 0C 00 00 00 01 00 00 00 00 00 00 00 00 DD E1

11:45:35.340 设备接收:02 03 18 CC CD 3E 4C 99 9A 3E 99 99 9A 3E 99 00 00 00 00 00 00 00 00 00 00 00 00 44 87

11:45:37.355 设备接收:02 03 08 00 1D 00 1D 00 1E 00 20 DA 4E

11:45:39.365 设备接收:02 03 20 00 00 3F 80 00 00 00 00 00 00 40 E0 00 00 00 00 00 00 00 00 CC CD BE 4C CC CD BD CC 00 00 00 00 B4 1B

11:45:39.413 设备发送:02 03 03 84 00 06 85 96

11:45:41.390 设备接收:02 03 0C 00 00 00 01 00 00 00 00 00 00 00 00 DD E1

11:45:43.407 设备接收:02 03 18 CC CD 3E 4C CC CD 3E 4C 99 9A 3E 99 00 00 00 00 00 00 00 00 00 00 00 00 6E 5E

11:45:45.434 设备接收:02 03 08 00 1D 00 1D 00 1E 00 20 DA 4E

11:45:47.465 设备接收:02 03 20 00 00 00 00 00 00 00 00 00 00 40 E0 00 00 00 00 00 00 00 00 CC CD BE 4C CC CD BD CC 00 00 00 00 9A 0B

11:45:49.483 设备接收:02 03 0C 00 00 00 01 00 00 00 00 00 00 00 00 DD E1

11:45:51.491 设备接收:02 03 18 CC CD 3E 4C 99 9A 3E 99 CC CD 3E CC 00 00 00 00 00 00 00 00 00 00 00 00 60 83

11:45:53.525 设备接收:02 03 08 00 1D 00 1D 00 1E 00 20 DA 4E

11:45:55.534 设备接收:02 03 20 00 00 00 00 00 00 00 00 00 00 40 E0 00 00 00 00 00 00 00 00 CC CD BE 4C CC CD BD CC 00 00 00 00 9A 0B

11:45:57.545 设备接收:02 03 0C 00 00 00 01 00 00 00 00 00 00 00 00 DD E1

11:45:59.555 设备接收:02 03 18 99 9A 3E 99 99 9A 3E 99 CC CD 3E CC 00 00 00 00 00 00 00 00 00 00 00 00 B9 60

11:45:59.595 设备发送:02 03 03 5E 00 04 25 AC

11:46:01.578 设备接收:02 03 08 00 1D 00 1D 00 1E 00 20 DA 4E

11:46:03.588 设备接收:02 03 20 00 00 00 00 00 00 00 00 00 00 41 00 00 00 00 00 00 00 00 00 CC CD BE 4C CC CD BE 4C 00 00 00 00 BD 44

11:46:05.585 设备接收:02 03 0C 00 00 00 01 00 00 00 00 00 00 00 00 DD E1

11:46:07.614 设备接收:02 03 18 CC CD 3E 4C 99 9A 3E 99 99 9A 3E 99 00 00 00 00 00 00 00 00 00 00 00 00 44 87

11:46:09.624 设备接收:02 03 08 00 1D 00 1D 00 1E 00 20 DA 4E

11:46:11.646 设备接收:02 03 20 00 00 00 00 00 00 00 00 00 00 40 E0 00 00 00 00 00 00 00 00 CC CD BE 4C CC CD BD CC 00 00 00 00 9A 0B

11:46:13.655 设备接收:02 03 0C 00 00 00 01 00 00 00 00 00 00 00 00 DD E1

11:46:15.684 设备接收:02 03 18 99 9A 3E 99 99 9A 3E 99 00 00 3F 00 00 00 00 00 00 00 00 00 00 00 00 00 F1 6C

11:46:17.697 设备接收:02 03 08 00 1D 00 1D 00 1E 00 20 DA 4E

11:46:19.723 设备接收:02 03 20 00 00 00 00 00 00 00 00 00 00 40 E0 00 00 00 00 00 00 00 00 CC CD BE 4C 00 00 00 00 00 00 00 00 81 FF

11:46:19.770 设备发送:02 03 03 84 00 06 85 96

