
14:07:58.546 设备发送:03 03 03 5E 00 04 24 7D

14:08:01.561 设备发送:03 03 03 5E 00 04 24 7D

14:08:04.583 设备发送:03 03 03 5E 00 04 24 7D

14:08:07.604 设备发送:03 03 03 62 00 10 E4 7E

14:08:10.609 设备发送:03 03 03 62 00 10 E4 7E

14:08:13.642 设备发送:03 03 03 62 00 10 E4 7E

14:08:16.647 设备发送:03 03 03 84 00 06 84 47

14:08:19.650 设备发送:03 03 03 84 00 06 84 47

14:08:22.665 设备发送:03 03 03 84 00 06 84 47

14:08:25.674 设备发送:04 03 03 52 00 0C E4 0F

14:08:28.662 设备接收:04 03 18 66 66 3F E6 00 00 40 20 33 33 40 13 00 00 3F 80 00 00 3F 80 00 00 3F 80 01 B4

14:08:28.715 设备发送:04 03 03 5E 00 04 25 CA

14:08:31.686 设备接收:04 03 08 00 27 00 28 00 28 00 2A B2 C8

14:08:31.737 设备发送:04 03 03 62 00 10 E5 C9

14:08:34.708 设备接收:04 03 20 00 00 3F 80 00 00 00 00 00 00 00 00 00 00 3F 80 74 BC BC 13 CC CD BD CC 00 00 00 00 00 00 00 00 22 F5

14:08:34.760 设备发送:04 03 03 84 00 06 85 F0

14:08:37.720 设备接收:04 03 0C 00 00 00 01 00 00 00 00 00 00 00 00 5B E3

14:08:37.773 设备发送:05 03 03 52 00 0C E5 DE

14:08:40.733 设备接收:05 03 18 00 00 00 00 00 00 00 00 00 00 00 00 00 00 00 00 00 00 00 00 00 00 00 00 92 7F

14:08:40.777 设备发送:05 03 03 5E 00 04 24 1B

14:08:43.758 设备接收:05 03 08 00 27 00 27 00 27 00 28 53 F7

14:08:43.807 设备发送:05 03 03 62 00 10 E4 18

14:08:46.780 设备接收:05 03 20 00 00 3F 80 00 00 3F 80 00 00 41 30 00 00 00 00 00 00 00 00 CC CD BD CC 00 00 00 00 00 00 00 00 DB 1D

14:08:46.834 设备发送:05 03 03 84 00 06 84 21

14:08:49.795 设备接收:05 03 0C 00 00 00 01 00 00 00 00 00 00 00 00 9A E3

14:08:49.842 设备发送:02 03 03 52 00 0C E4 69

14:08:52.809 设备接收:02 03 18 00 00 3F 80 99 9A 3F 99 00 00 3F 80 00 00 40 00 00 00 40 00 00 00 40 00 72 F0

14:08:52.853 设备发送:02 03 03 5E 00 04 25 AC

14:08:55.828 设备接收:02 03 08 00 25 00 25 00 26 00 2A C3 82

14:08:55.886 设备发送:02 03 03 62 00 10 E5 AF

14:08:58.854 设备接收:02 03 20 00 00 3F 80 00 00 3F 80 00 00 41 00 00 00 40 00 74 BD 3C 13 CC CD BE 4C CC CD BD CC 00 00 00 00 EE FE

14:08:58.902 设备发送:02 03 03 84 00 06 85 96

14:09:01.863 设备发送:03 03 03 52 00 0C E5 B8

14:09:01.914 设备接收:02 03 0C 00 00 00 01 00 00 00 00 00 00 00 00 DD E1

14:09:04.875 设备发送:03 03 03 52 00 0C E5 B8

14:09:07.895 设备发送:03 03 03 52 00 0C E5 B8

14:09:10.915 设备发送:03 03 03 5E 00 04 24 7D

14:09:13.905 设备发送:03 03 03 5E 00 04 24 7D

14:09:16.909 设备发送:03 03 03 5E 00 04 24 7D

14:09:19.933 设备发送:03 03 03 62 00 10 E4 7E

14:09:22.946 设备发送:03 03 03 62 00 10 E4 7E

14:09:25.961 设备发送:03 03 03 62 00 10 E4 7E

14:09:28.996 设备发送:03 03 03 84 00 06 84 47

14:09:31.985 设备发送:03 03 03 84 00 06 84 47

14:09:35.018 设备发送:03 03 03 84 00 06 84 47

14:09:38.019 设备发送:04 03 03 52 00 0C E4 0F

14:09:41.030 设备接收:04 03 18 66 66 3F E6 00 00 40 20 33 33 40 13 00 00 3F 80 00 00 3F 80 00 00 3F 80 01 B4

14:09:41.086 设备发送:04 03 03 5E 00 04 25 CA

14:09:44.038 设备接收:04 03 08 00 27 00 28 00 28 00 2A B2 C8

14:09:47.058 设备接收:04 03 20 00 00 3F 80 00 00 00 00 00 00 00 00 00 00 3F 80 12 6F BC 03 CC CD BD CC CC CD BD CC 00 00 00 00 3F 46

14:09:47.105 设备发送:04 03 03 84 00 06 85 F0

14:09:50.085 设备接收:04 03 0C 00 00 00 01 00 00 00 00 00 00 00 00 5B E3


14:09:53.080 设备接收:05 03 18 00 00 00 00 00 00 00 00 00 00 00 00 00 00 00 00 00 00 00 00 00 00 00 00 92 7F 05 83 03 40 F0 05 83 01 C1 31 05 83 01 C1 31 05 83 01 C1 31 05 83 01 C1 31 05 83 01 C1 31 05 83 01 C1 31 05 83 01 C1 31 05 83 01 C1 31 05 83 01 C1 31 05 83 01 C1 31 05 83 01 C1 31 05 83 01 C1 31 05 83 01 C1 31 05 83 01 C1 31 05 83 01 C1 31 05 83 01 C1 31 05 83 01 C1 31 05 83 01 C1 31 05 83 01 C1 31 05 83 01 C1 31 05 83 01 C1 31 05 83 01 C1 31 05 83 01 C1 31 05

14:09:53.136 设备发送:05 03 03 5E 00 04 24 1B

14:09:56.124 设备接收:83 01 C1 31 05 83 01 C1 31 05 83 01 C1 31 05 83 01 C1 31 05 83 01 C1 31 05 83 01 C1 31 05 83 01 C1 31 05 83 01 C1 31 05 83 01 C1 31 05 83 01 C1 31 05 83 01 C1 31 05 83 01 C1 31 05 83 01 C1 31 05 83 01 C1 31 05 83 01 C1 31 05 83 01 C1 31 05 83 01 C1 31 05 83 01 C1 31 05 83 01 C1 31 05 83 01 C1 31 05 83 01 C1 31 05 83 01 C1 31 05 83 01 C1 31 05 83 01 C1 31 05 83 01 C1 31 05 83 01 C1 31 05 83 01 C1 31 05 83 01 C1 31 05 83 01 C1 31 05 83 01 C1 31 05

14:09:56.176 设备发送:05 03 03 62 00 10 E4 18

14:09:59.132 设备接收:83 01 C1 31 05 83 01 C1 31 05 83 01 C1 31 05 83 01 C1 31 05 83 01 C1 31 05 83 01 C1 31 05 83 01 C1 31 05 83 01 C1 31 05 83 01 C1 31 05 83 01 C1 31 05 83 01 C1 31 05 83 01 C1 31 05 83 01 C1 31 05 83 01 C1 31 05 83 01 C1 31 05 83 01 C1 31 05 83 01 C1 31 05 83 01 C1 31 05 83 01 C1 31 05 03 08 00 29 00 29 00 29 00 27 F4 31 05 83 03 40 F0 05 83 01 C1 31 05 83 01 C1 31 05 83 01 C1 31 05 83 01 C1 31 05 83 01 C1 31 05 83 01 C1 31 05 83 01 C1 31 05 83 01

14:10:02.136 设备接收:C1 31 05 83 01 C1 31 05 83 01 C1 31 05 83 01 C1 31 05 83 01 C1 31 05 83 01 C1 31 05 83 01 C1 31 05 83 01 C1 31 05 83 01 C1 31 05 83 01 C1 31 05 83 01 C1 31 05 83 01 C1 31 05 83 01 C1 31 05 83 01 C1 31 05 83 01 C1 31 05 83 01 C1 31 05 83 01 C1 31 05 83 01 C1 31 05 83 01 C1 31 05 83 01 C1 31 05 83 01 C1 31 05 83 01 C1 31 05 83 01 C1 31 05 83 01 C1 31 05 83 01 C1 31 05 83 01 C1 31 05 83 01 C1 31 05 83 01 C1 31 05 83 01 C1 31 05 83 01 C1 31 05 83 01

14:10:05.144 设备接收:C1 31 05 83 01 C1 31 05 83 01 C1 31 05 83 01 C1 31 05 83 01 C1 31 05 83 01 C1 31 05 83 01 C1 31 05 83 01 C1 31 05 83 01 C1 31 05 83 01 C1 31 05 83 01 C1 31 05 83 01 C1 31 05 83 01 C1 31 05 83 01 C1 31 05 83 01 C1 31 05 83 01 C1 31 05 83 01 C1 31 05 83 01 C1 31 05 83 01 C1 31 05 83 01 C1 31 05 83 01 C1 31 05 83 01 C1 31 05 83 01 C1 31 05 83 01 C1 31 05 83 01 C1 31 05 83 01 C1 31 05 83 01 C1 31 05 83 01 C1 31 05 83 01 C1 31 05 83 01 C1 31 05 83 01

14:10:08.177 设备接收:C1 31 05 83 01 C1 31 05 83 01 C1 31 05 83 01 C1 31 05 83 01 C1 31 05 03 20 00 00 3F 80 00 00 00 00 00 00 41 40 00 00 00 00 00 00 00 00 CC CD BD CC 00 00 00 00 00 00 00 00 94 80 05 83 03 40 F0 05 83 01 C1 31 05 83 01 C1 31 05 83 01 C1 31 05 83 01 C1 31 05 83 01 C1 31 05 83 01 C1 31 05 83 01 C1 31 05 83 01 C1 31 05 83 01 C1 31 05 83 01 C1 31 05 83 01 C1 31 05 83 01 C1 31 05 83 01 C1 31 05 83 01 C1 31 05 83 01 C1 31 05 83 01 C1 31 05 83 01 C1 31 05

14:10:11.206 设备接收:83 01 C1 31 05 83 01 C1 31 05 83 01 C1 31 05 83 01 C1 31 05 83 01 C1 31 05 83 01 C1 31 05 83 01 C1 31 05 83 01 C1 31 05 83 01 C1 31 05 83 01 C1 31 05 83 01 C1 31 05 83 01 C1 31 05 83 01 C1 31 05 83 01 C1 31 05 83 01 C1 31 05 83 01 C1 31 05 83 01 C1 31 05 83 01 C1 31 05 83 01 C1 31 05 83 01 C1 31 05 83 01 C1 31 05 83 01 C1 31 05 83 01 C1 31 05 83 01 C1 31 05 83 01 C1 31 05 83 01 C1 31 05 83 01 C1 31 05 83 01 C1 31 05 83 01 C1 31 05 83 01 C1 31 05

14:10:11.258 设备发送:02 03 03 84 00 06 85 96

14:10:14.211 设备接收:83 01 C1 31 05 83 01 C1 31 05 83 01 C1 31 05 83 01 C1 31 05 83 01 C1 31 05 83 01 C1 31 05 83 01 C1 31 05 83 01 C1 31 05 83 01 C1 31 05 83 01 C1 31 05 83 01 C1 31 05 83 01 C1 31 05 83 01 C1 31 05 83 01 C1 31 05 83 01 C1 31 05 83 01 C1 31 05 83 01 C1 31 05 83 01 C1 31 05 83 01 C1 31 05 83 01 C1 31 05 83 01 C1 31 05 83 01 C1 31 05 83 01 C1 31 05 83 01 C1 31 05 83 01 C1 31 05 03 0C 00 00 00 01 00 00 00 00 00 00 00 00 9A E3 05 83 03 40 F0 05 83 01 C1

14:10:17.206 设备接收:31 05 83 01 C1 31 05 83 01 C1 31 05 83 01 C1 31 05 83 01 C1 31 05 83 01 C1 31 05 83 01 C1 31 05 83 01 C1 31 05 83 01 C1 31 05 83 01 C1 31 05 83 01 C1 31 05 83 01 C1 31 05 83 01 C1 31 05 83 01 C1 31 05 83 01 C1 31 05 83 01 C1 31 05 83 01 C1 31 05 83 01 C1 31 03 03 18 CC CD 3D CC 00 00 00 00 00 00 00 00 00 00 00 00 00 00 00 00 00 00 00 00 A5 65

14:10:20.231 设备接收:03 03 08 00 29 00 29 00 29 00 28 AA BD

14:10:23.257 设备接收:03 03 20 00 00 40 00 00 00 00 00 00 00 41 88 00 00 00 00 00 00 00 00 CC CD BD CC CC CD BD CC 00 00 00 00 67 20

14:10:26.254 设备接收:03 03 0C 00 00 00 01 00 00 00 00 00 00 00 00 1C E1

14:10:29.271 设备接收:04 03 18 99 9A 3F D9 99 9A 40 19 CC CD 40 0C 00 00 3F 80 00 00 3F 80 00 00 3F 80 05 89

14:10:29.323 设备发送:04 03 03 5E 00 04 25 CA

14:10:32.312 设备接收:04 03 08 00 27 00 28 00 28 00 2A B2 C8

14:10:35.322 设备接收:04 03 20 00 00 3F 80 00 00 00 00 00 00 00 00 00 00 3F 80 74 BC BC 13 CC CD BD CC 00 00 00 00 00 00 00 00 22 F5

14:10:38.330 设备接收:04 03 0C 00 00 00 01 00 00 00 00 00 00 00 00 5B E3

14:10:41.343 设备接收:05 03 18 00 00 00 00 00 00 00 00 00 00 00 00 00 00 00 00 00 00 00 00 00 00 00 00 92 7F

14:10:44.354 设备接收:05 03 08 00 27 00 27 00 27 00 29 92 37

14:10:47.378 设备接收:05 03 20 00 00 3F 80 00 00 3F 80 00 00 41 30 00 00 00 00 00 00 00 00 CC CD BD CC CC CD BD CC 00 00 00 00 C0 E9

14:10:50.381 设备接收:05 03 0C 00 00 00 01 00 00 00 00 00 00 00 00 9A E3

14:10:53.400 设备发送:02 03 03 52 00 0C E4 69

14:10:56.429 设备发送:02 03 03 52 00 0C E4 69

14:10:59.447 设备发送:02 03 03 5E 00 04 25 AC

14:11:02.439 设备发送:02 03 03 5E 00 04 25 AC

14:11:05.438 设备接收:02 03 08 00 25 00 26 00 26 00 2A 87 82

14:11:08.449 设备发送:02 03 03 62 00 10 E5 AF

14:11:11.490 设备发送:02 03 03 62 00 10 E5 AF

14:11:14.491 设备发送:02 03 03 84 00 06 85 96

14:11:17.494 设备发送:02 03 03 84 00 06 85 96

14:11:20.521 设备发送:02 03 03 84 00 06 85 96

14:11:23.539 设备发送:03 03 03 52 00 0C E5 B8

14:11:26.534 设备发送:03 03 03 5E 00 04 24 7D

14:11:29.539 设备接收:03 03 08 00 28 00 28 00 28 00 28 D6 7D

14:11:32.550 设备接收:03 03 20 00 00 40 00 00 00 00 00 00 00 41 88 00 00 00 00 00 00 00 00 CC CD BD CC 00 00 00 00 00 00 00 00 7C D4

14:11:35.578 设备接收:03 03 0C 00 00 00 01 00 00 00 00 00 00 00 00 1C E1

14:11:38.588 设备接收:04 03 18 99 9A 3F D9 99 9A 40 19 CC CD 40 0C 00 00 3F 80 00 00 3F 80 00 00 3F 80 05 89

14:11:38.633 设备发送:04 03 03 5E 00 04 25 CA

14:11:41.597 设备接收:04 03 08 00 27 00 28 00 28 00 2A B2 C8

14:11:44.603 设备接收:04 03 20 00 00 3F 80 00 00 00 00 00 00 00 00 00 00 3F 80 D7 0A BC 23 CC CD BD CC 00 00 00 00 00 00 00 00 6D FA

14:11:47.609 设备接收:04 03 0C 00 00 00 01 00 00 00 00 00 00 00 00 5B E3

14:11:50.634 设备接收:05 03 18 00 00 00 00 00 00 00 00 00 00 00 00 00 00 00 00 00 00 00 00 00 00 00 00 92 7F

14:11:53.652 设备接收:05 03 08 00 27 00 27 00 27 00 29 92 37

14:11:56.664 设备接收:05 03 20 00 00 3F 80 00 00 00 00 00 00 41 40 00 00 00 00 00 00 00 00 CC CD BD CC CC CD BD CC 00 00 00 00 8F 74

14:11:59.689 设备接收:05 03 0C 00 00 00 01 00 00 00 00 00 00 00 00 9A E3

14:12:02.700 设备发送:02 03 03 52 00 0C E4 69

14:12:05.728 设备发送:02 03 03 52 00 0C E4 69

14:12:08.728 设备发送:02 03 03 5E 00 04 25 AC

14:12:11.749 设备发送:02 03 03 5E 00 04 25 AC

14:12:14.770 设备接收:02 03 08 00 25 00 25 00 26 00 2A C3 82

14:12:17.784 设备发送:02 03 03 62 00 10 E5 AF

14:12:20.800 设备发送:02 03 03 62 00 10 E5 AF

14:12:23.834 设备发送:02 03 03 84 00 06 85 96

14:12:26.837 设备发送:02 03 03 84 00 06 85 96

14:12:29.865 设备发送:02 03 03 84 00 06 85 96

14:12:32.891 设备发送:03 03 03 52 00 0C E5 B8

14:12:35.882 设备接收:03 03 18 CC CD 3E 4C 99 9A 3E 99 00 00 00 00 00 00 00 00 00 00 00 00 00 00 00 00 E9 32

14:12:38.920 设备接收:03 03 08 00 28 00 28 00 28 00 28 D6 7D

14:12:41.933 设备接收:03 03 20 00 00 40 00 00 00 00 00 00 00 41 88 00 00 00 00 00 00 00 00 CC CD BD CC 00 00 00 00 00 00 00 00 7C D4

14:12:44.947 设备接收:03 03 0C 00 00 00 01 00 00 00 00 00 00 00 00 1C E1

14:12:47.971 设备接收:04 03 18 99 9A 3F D9 00 00 40 20 33 33 40 13 00 00 3F 80 00 00 3F 80 00 00 3F 80 E5 AA

14:12:50.977 设备发送:04 03 03 62 00 10 E5 C9

14:12:53.997 设备接收:04 03 20 00 00 3F 80 00 00 00 00 00 00 00 00 00 00 3F 80 D7 0A BC 23 CC CD BD CC 00 00 00 00 00 00 00 00 6D FA

14:12:57.001 设备接收:04 03 0C 00 00 00 01 00 00 00 00 00 00 00 00 5B E3

14:13:00.010 设备接收:05 03 18 00 00 00 00 00 00 00 00 00 00 00 00 00 00 00 00 00 00 00 00 00 00 00 00 92 7F

14:13:03.042 设备接收:05 03 08 00 27 00 27 00 27 00 29 92 37

14:13:06.032 设备接收:05 03 20 00 00 3F 80 00 00 00 00 00 00 41 30 00 00 00 00 00 00 00 00 CC CD BD CC CC CD BD CC 00 00 00 00 F4 43

14:13:09.048 设备接收:05 03 0C 00 00 00 01 00 00 00 00 00 00 00 00 9A E3

14:13:12.077 设备发送:02 03 03 52 00 0C E4 69

14:13:15.079 设备发送:02 03 03 52 00 0C E4 69

14:13:18.103 设备发送:02 03 03 5E 00 04 25 AC

14:13:21.107 设备发送:02 03 03 5E 00 04 25 AC

14:13:24.142 设备发送:02 03 03 5E 00 04 25 AC

14:13:27.163 设备发送:02 03 03 62 00 10 E5 AF

14:13:30.185 设备发送:02 03 03 62 00 10 E5 AF

14:13:33.190 设备发送:02 03 03 62 00 10 E5 AF

14:13:36.221 设备发送:02 03 03 84 00 06 85 96

14:13:39.232 设备发送:02 03 03 84 00 06 85 96

14:13:42.249 设备接收:02 03 0C 00 00 00 01 00 00 00 00 00 00 00 00 DD E1


14:13:45.267 设备接收:03 03 18 00 00 43 5D 33 33 43 6E 4C CD 43 64 00 00 00 00 00 00 00 00 00 00 00 00 73 B5

14:13:48.286 设备接收:03 03 08 00 28 00 27 00 27 00 29 73 BF

14:13:51.313 设备接收:03 03 20 00 00 40 00 00 00 00 00 00 00 41 90 00 00 00 00 00 00 00 00 CC CD BD CC CC CD BD CC 66 66 42 48 32 F8

14:13:54.321 设备接收:03 03 0C 00 00 00 03 00 00 00 00 00 01 00 00 54 41

14:13:57.337 设备接收:04 03 18 99 9A 3F D9 99 9A 40 19 CC CD 40 0C 00 00 3F 80 00 00 3F 80 00 00 3F 80 05 89

14:14:00.357 设备接收:04 03 08 00 27 00 28 00 28 00 2A B2 C8

15:04:10.70600

15:04:13.058 设备发送:03 03 03 5E 00 04 24 7D

15:04:16.086 设备发送:03 03 03 5E 00 04 24 7D

15:04:19.088 设备发送:03 03 03 62 00 10 E4 7E

15:04:22.090 设备发送:03 03 03 62 00 10 E4 7E

15:04:25.127 设备发送:03 03 03 62 00 10 E4 7E

15:04:28.149 设备发送:03 03 03 84 00 06 84 47

15:04:31.153 设备发送:03 03 03 84 00 06 84 47

15:04:34.180 设备发送:03 03 03 84 00 06 84 47

15:04:37.199 设备发送:04 03 03 52 00 0C E4 0F

15:04:40.227 设备发送:04 03 03 52 00 0C E4 0F

15:04:43.244 设备发送:04 03 03 52 00 0C E4 0F

15:04:46.261 设备发送:04 03 03 5E 00 04 25 CA

15:04:49.290 设备发送:04 03 03 5E 00 04 25 CA

15:04:52.291 设备发送:04 03 03 5E 00 04 25 CA

15:04:55.319 设备发送:04 03 03 62 00 10 E5 C9

15:04:58.319 设备发送:04 03 03 62 00 10 E5 C9

15:05:01.322 设备发送:04 03 03 62 00 10 E5 C9

15:05:04.348 设备发送:04 03 03 84 00 06 85 F0

15:05:07.370 设备发送:04 03 03 84 00 06 85 F0

15:05:10.391 设备发送:04 03 03 84 00 06 85 F0

15:05:13.400 设备发送:05 03 03 52 00 0C E5 DE

15:05:16.432 设备发送:05 03 03 52 00 0C E5 DE

15:05:19.437 设备发送:05 03 03 52 00 0C E5 DE

15:05:22.462 设备发送:05 03 03 5E 00 04 24 1B

15:05:25.470 设备发送:05 03 03 5E 00 04 24 1B

15:05:28.485 设备发送:05 03 03 5E 00 04 24 1B

15:05:31.507 设备发送:05 03 03 62 00 10 E4 18

15:05:34.516 设备发送:05 03 03 62 00 10 E4 18

15:05:37.544 设备发送:05 03 03 62 00 10 E4 18

15:05:40.571 设备发送:05 03 03 84 00 06 84 21

15:05:43.586 设备发送:05 03 03 84 00 06 84 21

15:05:46.589 设备发送:05 03 03 84 00 06 84 21

15:05:49.625 设备发送:02 03 03 52 00 0C E4 69

15:05:52.621 设备接收:02 03 18 66 66 3F 66 CC CD 3F 8C 66 66 3F 66 00 00 00 00 00 00 00 00 00 00 00 00 FA 6D

15:05:55.648 设备接收:02 03 08 00 23 00 24 00 24 00 27 F8 47

15:05:58.651 设备接收:02 03 20 00 00 3F 80 00 00 3F 80 00 00 41 00 00 00 00 00 00 00 00 00 99 9A BE 99 CC CD BE 4C 00 00 00 00 D2 D2

15:06:01.673 设备接收:02 03 0C 00 00 00 01 00 00 00 00 00 00 00 00 DD E1

15:06:04.687 设备发送:03 03 03 52 00 0C E5 B8

15:06:07.702 设备发送:03 03 03 52 00 0C E5 B8

15:06:10.22500

