
14:23:14.468 设备发送:02 03 03 52 00 0C E4 69

14:23:17.459 设备接收:02 03 18 99 9A 3E 99 99 9A 3E 99 00 00 3F 00 00 00 00 00 00 00 00 00 00 00 00 00 F1 6C

14:23:17.510 设备发送:02 03 03 5E 00 04 25 AC

14:23:20.498 设备接收:02 03 08 00 1D 00 1D 00 1E 00 21 1B 8E

14:23:20.550 设备发送:02 03 03 62 00 10 E5 AF

14:23:23.556 设备接收:02 03 20 00 00 00 00 00 00 00 00 00 00 41 00 00 00 C0 40 60 42 BB E5 99 9A BE 99 CC CD BD CC 00 00 00 00 E7 AB

14:23:23.602 设备发送:02 03 03 84 00 06 85 96

14:23:26.597 设备接收:02 03 0C 00 00 00 01 00 00 00 00 00 00 00 00 DD E1

14:23:26.645 设备发送:02 03 03 52 00 0C E4 69

14:23:29.622 设备接收:02 03 18 CC CD 3E CC CC CD 3E CC CC CD 3E CC 00 00 00 00 00 00 00 00 00 00 00 00 B4 7A

14:23:29.673 设备发送:02 03 03 5E 00 04 25 AC

14:23:32.655 设备接收:02 03 08 00 1D 00 1D 00 1E 00 21 1B 8E

14:23:32.722 设备发送:02 03 03 62 00 10 E5 AF

14:23:35.718 设备接收:02 03 20 00 00 00 00 00 00 00 00 00 00 41 00 00 00 BF 80 12 6F 3A 83 99 9A BE 99 CC CD BE 4C 00 00 00 00 DF C9

14:23:35.772 设备发送:02 03 03 84 00 06 85 96

14:23:38.748 设备接收:02 03 0C 00 00 00 01 00 00 00 00 00 00 00 00 DD E1

14:23:38.800 设备发送:02 03 03 52 00 0C E4 69

14:23:41.821 设备接收:02 03 18 CC CD 3E CC 99 9A 3E 99 00 00 3F 00 00 00 00 00 00 00 00 00 00 00 00 00 B7 47

14:23:41.876 设备发送:02 03 03 5E 00 04 25 AC

14:23:44.846 设备接收:02 03 08 00 1D 00 1D 00 1E 00 21 1B 8E

14:23:44.893 设备发送:02 03 03 62 00 10 E5 AF

14:23:47.887 设备接收:02 03 20 00 00 00 00 00 00 00 00 00 00 40 E0 00 00 C0 00 9B A6 BB C4 99 9A BE 99 CC CD BE 4C 00 00 00 00 6B E9

14:23:47.942 设备发送:02 03 03 84 00 06 85 96

14:23:50.928 设备接收:02 03 0C 00 00 00 01 00 00 00 00 00 00 00 00 DD E1

14:23:50.969 设备发送:02 03 03 52 00 0C E4 69

14:23:52.01800

